
T2D50 000:309 SEGGER J-Link V5.12f Log File (0001ms, 0281ms total)
T2D50 000:309 DLL Compiled: May 17 2016 16:03:35 (0001ms, 0281ms total)
T2D50 000:309 Logging started @ 2018-12-20 16:26 (0001ms, 0281ms total)
T2D50 000:310 JLINK_SetWarnOutHandler(...) (0000ms, 0281ms total)
T2D50 000:310 JLINK_OpenEx(...)
Firmware: J-Link ARM-OB STM32 compiled Aug 22 2012 19:52:04
Hardware: V7.00
S/N: 20170808
Feature(s): RDI,FlashDL,FlashBP,JFlash,GDBFull  returns O.K. (0276ms, 0557ms total)
T2D50 000:586 JLINK_SetErrorOutHandler(...) (0000ms, 0557ms total)
T2D50 000:586 JLINK_ExecCommand("ProjectFile = "E:\Develop\2018年项目\签订\温州极客\冷链\交换机程序\CodeChainer_20181220\JLinkSettings.ini"", ...)  returns 0x00 (0002ms, 0559ms total)
T2D50 000:593 JLINK_ExecCommand("Device = STM32F103R8", ...)Device "STM32F103R8" selected.  returns 0x00 (0006ms, 0565ms total)
T2D50 000:599 JLINK_ExecCommand("DisableConnectionTimeout", ...)  returns 0x01 (0000ms, 0565ms total)
T2D50 000:599 JLINK_GetHardwareVersion()  returns 0x11170 (0000ms, 0565ms total)
T2D50 000:599 JLINK_GetDLLVersion()  returns 51206 (0000ms, 0565ms total)
T2D50 000:599 JLINK_GetFirmwareString(...) (0000ms, 0565ms total)
T2D50 000:630 JLINK_GetDLLVersion()  returns 51206 (0000ms, 0565ms total)
T2D50 000:630 JLINK_GetCompileDateTime() (0000ms, 0565ms total)
T2D50 000:639 JLINK_GetFirmwareString(...) (0000ms, 0565ms total)
T2D50 000:642 JLINK_GetHardwareVersion()  returns 0x11170 (0000ms, 0565ms total)
T2D50 000:657 JLINK_TIF_Select(JLINKARM_TIF_SWD)  returns 0x00 (0003ms, 0568ms total)
T2D50 000:660 JLINK_SetSpeed(5000) (0001ms, 0569ms total)
T2D50 000:661 JLINK_GetId() >0x108 TIF>Found SWD-DP with ID 0x1BA01477 >0x0D TIF> >0x28 TIF> >0x0D TIF> >0x28 TIF> >0x0D TIF> >0x28 TIF> >0x0D TIF> >0x28 TIF> >0x0D TIF> >0x21 TIF> >0x0D TIF> >0x28 TIF> >0x0D TIF> >0x28 TIF> >0x0D TIF> >0x28 TIF> >0x0D TIF> >0x21 TIF> >0x0D TIF> >0x21 TIF> >0x0D TIF> >0x28 TIF> >0x0D TIF> >0x21 TIF> >0x0D TIF> >0x21 TIF> >0x0D TIF> >0x28 TIF> >0x0D TIF> >0x28 TIF> >0x0D TIF> >0x28 TIF> >0x0D TIF> >0x21 TIF> >0x0D TIF> >0x21 TIF> >0x0D TIF> >0x28 TIF> >0x0D TIF>
 >0x21 TIF> >0x0D TIF> >0x21 TIF> >0x0D TIF> >0x28 TIF> >0x0D TIF> >0x21 TIF> >0x0D TIF> >0x21 TIF> >0x0D TIF> >0x28 TIF> >0x0D TIF> >0x21 TIF> >0x0D TIF> >0x21 TIF> >0x108 TIF>Found SWD-DP with ID 0x1BA01477 >0x0D TIF> >0x28 TIF> >0x0D TIF> >0x28 TIF> >0x0D TIF> >0x28 TIF> >0x0D TIF> >0x28 TIF> >0x0D TIF> >0x21 TIF> >0x0D TIF> >0x28 TIF> >0x0D TIF> >0x28 TIF> >0x0D TIF> >0x21 TIF> >0x0D TIF> >0x21 TIF> >0x0D TIF> >0x21 TIF> >0x0D TIF> >0x28 TIF> >0x0D TIF> >0x28 TIF> >0x0D TIF> >0x28 TIF> >0x0D TIF>
 >0x21 TIF> >0x0D TIF> >0x21 TIF> >0x0D TIF> >0x28 TIF> >0x0D TIF> >0x21 TIF> >0x0D TIF> >0x21 TIF>Found Cortex-M3 r1p1, Little endian. -- CPU_ReadMem(4 bytes @ 0xE000EDF0) -- CPU_WriteMem(4 bytes @ 0xE000EDF0) -- CPU_ReadMem(4 bytes @ 0xE0002000)FPUnit: 6 code (BP) slots and 2 literal slots -- CPU_ReadMem(4 bytes @ 0xE000EDFC) -- CPU_WriteMem(4 bytes @ 0xE000EDFC) -- CPU_ReadMem(4 bytes @ 0xE0001000) -- CPU_WriteMem(4 bytes @ 0xE0001000) -- CPU_ReadMem(4 bytes @ 0xE000ED88)
 -- CPU_WriteMem(4 bytes @ 0xE000ED88) -- CPU_ReadMem(4 bytes @ 0xE000ED88) -- CPU_WriteMem(4 bytes @ 0xE000ED88)CoreSight components:ROMTbl 0 @ E00FF000 -- CPU_ReadMem(16 bytes @ 0xE00FF000) -- CPU_ReadMem(16 bytes @ 0xE000EFF0) -- CPU_ReadMem(16 bytes @ 0xE000EFE0)ROMTbl 0 [0]: FFF0F000, CID: B105E00D, PID: 001BB000 SCS -- CPU_ReadMem(16 bytes @ 0xE0001FF0) -- CPU_ReadMem(16 bytes @ 0xE0001FE0)ROMTbl 0 [1]: FFF02000, CID: B105E00D, PID: 001BB002 DWT -- CPU_ReadMem(16 bytes @ 0xE0002FF0)
 -- CPU_ReadMem(16 bytes @ 0xE0002FE0)ROMTbl 0 [2]: FFF03000, CID: B105E00D, PID: 000BB003 FPB -- CPU_ReadMem(16 bytes @ 0xE0000FF0) -- CPU_ReadMem(16 bytes @ 0xE0000FE0)ROMTbl 0 [3]: FFF01000, CID: B105E00D, PID: 001BB001 ITM -- CPU_ReadMem(16 bytes @ 0xE00FF010) -- CPU_ReadMem(16 bytes @ 0xE0040FF0) -- CPU_ReadMem(16 bytes @ 0xE0040FE0)ROMTbl 0 [4]: FFF41000, CID: B105900D, PID: 001BB923 TPIU-Lite >0x0D TIF> >0x21 TIF>  returns 0x1BA01477 (0169ms, 0738ms total)
T2D50 000:831 JLINK_GetDLLVersion()  returns 51206 (0000ms, 0738ms total)
T2D50 000:831 JLINK_CORE_GetFound()  returns 0x30000FF (0000ms, 0738ms total)
T2D50 000:831 JLINK_GetDebugInfo(0x100) -- Value=0xE00FF000  returns 0x00 (0000ms, 0738ms total)
T2D50 000:833 JLINK_GetDebugInfo(0x100) -- Value=0xE00FF000  returns 0x00 (0000ms, 0738ms total)
T2D50 000:833 JLINK_GetDebugInfo(0x101) -- Value=0x00000000  returns 0x00 (0000ms, 0738ms total)
T2D50 000:833 JLINK_ReadMem (0xE0041FF0, 0x0010 Bytes, ...) -- CPU is running -- CPU_ReadMem(16 bytes @ 0xE0041FF0) - Data: 00 00 00 00 00 00 00 00 00 00 00 00 00 00 00 00  returns 0x00 (0001ms, 0739ms total)
T2D50 000:834 JLINK_GetDebugInfo(0x102) -- Value=0x00000000  returns 0x00 (0000ms, 0739ms total)
T2D50 000:834 JLINK_GetDebugInfo(0x103) -- Value=0xE0040000  returns 0x00 (0000ms, 0739ms total)
T2D50 000:834 JLINK_GetDebugInfo(0x104) -- Value=0xE0000000  returns 0x00 (0000ms, 0739ms total)
T2D50 000:834 JLINK_GetDebugInfo(0x105) -- Value=0xE0001000  returns 0x00 (0000ms, 0739ms total)
T2D50 000:834 JLINK_GetDebugInfo(0x106) -- Value=0xE0002000  returns 0x00 (0000ms, 0739ms total)
T2D50 000:834 JLINK_GetDebugInfo(0x107) -- Value=0xE000E000  returns 0x00 (0000ms, 0739ms total)
T2D50 000:834 JLINK_GetDebugInfo(0x10C) -- Value=0xE000EDF0  returns 0x00 (0000ms, 0739ms total)
T2D50 000:834 JLINK_ReadMemU32(0xE000ED00, 0x0001 Items, ...) -- CPU is running -- CPU_ReadMem(4 bytes @ 0xE000ED00) - Data: 31 C2 1F 41  returns 0x01 (0001ms, 0740ms total)
T2D50 000:835 JLINK_SetResetType(JLINKARM_RESET_TYPE_NORMAL)  returns JLINKARM_RESET_TYPE_NORMAL (0000ms, 0740ms total)
T2D50 000:835 JLINK_Reset() -- CPU is running -- CPU_WriteMem(4 bytes @ 0xE000EDF0) -- CPU is running -- CPU_WriteMem(4 bytes @ 0xE000EDFC) >0x35 TIF> -- CPU is running -- CPU_WriteMem(4 bytes @ 0xE000ED0C) -- CPU is running -- CPU_ReadMem(4 bytes @ 0xE000EDF0) -- CPU is running -- CPU_ReadMem(4 bytes @ 0xE000EDF0) -- CPU is running -- CPU_WriteMem(4 bytes @ 0xE000EDF0) -- CPU is running -- CPU_WriteMem(4 bytes @ 0xE000EDFC) -- CPU is running -- CPU_ReadMem(4 bytes @ 0xE000EDF0)
 -- CPU_WriteMem(4 bytes @ 0xE0002000) -- CPU_ReadMem(4 bytes @ 0xE000EDFC) -- CPU_ReadMem(4 bytes @ 0xE0001000) (0024ms, 0764ms total)
T2D50 000:859 JLINK_Halt()  returns 0x00 (0000ms, 0764ms total)
T2D50 000:859 JLINK_IsHalted()  returns TRUE (0000ms, 0764ms total)
T2D50 000:859 JLINK_ReadMemU32(0xE000EDF0, 0x0001 Items, ...) -- CPU_ReadMem(4 bytes @ 0xE000EDF0) - Data: 03 00 03 00  returns 0x01 (0001ms, 0765ms total)
T2D50 000:860 JLINK_WriteU32(0xE000EDF0, 0xA05F0003) -- CPU_WriteMem(4 bytes @ 0xE000EDF0)  returns 0x00 (0001ms, 0766ms total)
T2D50 000:861 JLINK_WriteU32(0xE000EDFC, 0x01000000) -- CPU_WriteMem(4 bytes @ 0xE000EDFC)  returns 0x00 (0001ms, 0767ms total)
T2D50 000:879 JLINK_GetHWStatus(...)  returns 0x00 (0002ms, 0769ms total)
T2D50 000:886 JLINK_GetNumBPUnits(Type = 0xFFFFFF00)  returns 0x06 (0000ms, 0769ms total)
T2D50 000:886 JLINK_GetNumBPUnits(Type = 0xF0)  returns 0x2000 (0000ms, 0769ms total)
T2D50 000:886 JLINK_GetNumWPUnits()  returns 0x04 (0000ms, 0769ms total)
T2D50 000:892 JLINK_GetSpeed()  returns 0xFA0 (0000ms, 0769ms total)
T2D50 000:896 JLINK_ReadMemU32(0xE000E004, 0x0001 Items, ...) -- CPU_ReadMem(4 bytes @ 0xE000E004) - Data: 01 00 00 00  returns 0x01 (0002ms, 0771ms total)
T2D50 000:898 JLINK_ReadMemU32(0xE000E004, 0x0001 Items, ...) -- CPU_ReadMem(4 bytes @ 0xE000E004) - Data: 01 00 00 00  returns 0x01 (0001ms, 0772ms total)
T2D50 000:899 JLINK_WriteMem(0xE0001000, 0x001C Bytes, ...) - Data: 01 00 00 00 00 00 00 00 00 00 00 00 00 00 00 00 ... -- CPU_WriteMem(28 bytes @ 0xE0001000)  returns 0x1C (0002ms, 0774ms total)
T2D50 000:901 JLINK_ReadMem (0xE0001000, 0x001C Bytes, ...) -- CPU_ReadMem(28 bytes @ 0xE0001000) - Data: 01 00 00 40 00 00 00 00 00 00 00 00 00 00 00 00 ...  returns 0x00 (0001ms, 0775ms total)
T2D50 000:902 JLINK_Halt()  returns 0x00 (0000ms, 0775ms total)
T2D50 000:902 JLINK_IsHalted()  returns TRUE (0000ms, 0775ms total)
T2D50 000:904 JLINK_WriteMem(0x20000000, 0x0164 Bytes, ...) - Data: 00 BE 0A E0 0D 78 2D 06 68 40 08 24 40 00 00 D3 ... -- CPU_WriteMem(356 bytes @ 0x20000000)  returns 0x164 (0006ms, 0781ms total)
T2D50 000:910 JLINK_WriteReg(R0, 0x08000000)  returns 0x00 (0000ms, 0781ms total)
T2D50 000:910 JLINK_WriteReg(R1, 0x00B71B00)  returns 0x00 (0000ms, 0781ms total)
T2D50 000:910 JLINK_WriteReg(R2, 0x00000001)  returns 0x00 (0000ms, 0781ms total)
T2D50 000:910 JLINK_WriteReg(R3, 0x00000000)  returns 0x00 (0000ms, 0781ms total)
T2D50 000:910 JLINK_WriteReg(R4, 0x00000000)  returns 0x00 (0000ms, 0781ms total)
T2D50 000:910 JLINK_WriteReg(R5, 0x00000000)  returns 0x00 (0000ms, 0781ms total)
T2D50 000:910 JLINK_WriteReg(R6, 0x00000000)  returns 0x00 (0000ms, 0781ms total)
T2D50 000:910 JLINK_WriteReg(R7, 0x00000000)  returns 0x00 (0000ms, 0781ms total)
T2D50 000:910 JLINK_WriteReg(R8, 0x00000000)  returns 0x00 (0000ms, 0781ms total)
T2D50 000:910 JLINK_WriteReg(R9, 0x20000160)  returns 0x00 (0000ms, 0781ms total)
T2D50 000:910 JLINK_WriteReg(R10, 0x00000000)  returns 0x00 (0000ms, 0781ms total)
T2D50 000:910 JLINK_WriteReg(R11, 0x00000000)  returns 0x00 (0000ms, 0781ms total)
T2D50 000:910 JLINK_WriteReg(R12, 0x00000000)  returns 0x00 (0000ms, 0781ms total)
T2D50 000:910 JLINK_WriteReg(R13 (SP), 0x20001000)  returns 0x00 (0000ms, 0781ms total)
T2D50 000:910 JLINK_WriteReg(R14, 0x20000001)  returns 0x00 (0000ms, 0781ms total)
T2D50 000:910 JLINK_WriteReg(R15 (PC), 0x20000038)  returns 0x00 (0000ms, 0781ms total)
T2D50 000:910 JLINK_WriteReg(XPSR, 0x01000000)  returns 0x00 (0000ms, 0781ms total)
T2D50 000:910 JLINK_WriteReg(MSP, 0x20001000)  returns 0x00 (0000ms, 0781ms total)
T2D50 000:910 JLINK_WriteReg(PSP, 0x20001000)  returns 0x00 (0000ms, 0781ms total)
T2D50 000:910 JLINK_WriteReg(CFBP, 0x00000000)  returns 0x00 (0000ms, 0781ms total)
T2D50 000:910 JLINK_SetBPEx(Addr = 0x20000000, Type = 0xFFFFFFF2) -- CPU_ReadMem(2 bytes @ 0x20000000)  returns 0x00000001 (0001ms, 0782ms total)
T2D50 000:911 JLINK_Go() -- CPU_WriteMem(2 bytes @ 0x20000000) -- CPU_ReadMem(4 bytes @ 0xE0001000) -- CPU_WriteMem(4 bytes @ 0xE0002008) -- CPU_WriteMem(4 bytes @ 0xE000200C) -- CPU_WriteMem(4 bytes @ 0xE0002010) -- CPU_WriteMem(4 bytes @ 0xE0002014) -- CPU_WriteMem(4 bytes @ 0xE0002018) -- CPU_WriteMem(4 bytes @ 0xE000201C) -- CPU_WriteMem(4 bytes @ 0xE0001004) (0012ms, 0794ms total)
T2D50 000:923 JLINK_IsHalted() -- CPU_ReadMem(2 bytes @ 0x20000000)  returns TRUE (0005ms, 0799ms total)
T2D50 000:928 JLINK_ReadReg(R15 (PC))  returns 0x20000000 (0000ms, 0794ms total)
T2D50 000:928 JLINK_ClrBPEx(BPHandle = 0x00000001)  returns 0x00 (0000ms, 0794ms total)
T2D50 000:928 JLINK_ReadReg(R0)  returns 0x00000000 (0000ms, 0794ms total)
T2D50 000:929 JLINK_WriteReg(R0, 0x08000000)  returns 0x00 (0000ms, 0794ms total)
T2D50 000:929 JLINK_WriteReg(R1, 0x00B71B00)  returns 0x00 (0000ms, 0794ms total)
T2D50 000:929 JLINK_WriteReg(R2, 0x00000001)  returns 0x00 (0000ms, 0794ms total)
T2D50 000:929 JLINK_WriteReg(R3, 0x00000000)  returns 0x00 (0000ms, 0794ms total)
T2D50 000:929 JLINK_WriteReg(R4, 0x00000000)  returns 0x00 (0000ms, 0794ms total)
T2D50 000:929 JLINK_WriteReg(R5, 0x00000000)  returns 0x00 (0000ms, 0794ms total)
T2D50 000:929 JLINK_WriteReg(R6, 0x00000000)  returns 0x00 (0000ms, 0794ms total)
T2D50 000:929 JLINK_WriteReg(R7, 0x00000000)  returns 0x00 (0000ms, 0794ms total)
T2D50 000:929 JLINK_WriteReg(R8, 0x00000000)  returns 0x00 (0000ms, 0794ms total)
T2D50 000:929 JLINK_WriteReg(R9, 0x20000160)  returns 0x00 (0000ms, 0794ms total)
T2D50 000:929 JLINK_WriteReg(R10, 0x00000000)  returns 0x00 (0000ms, 0794ms total)
T2D50 000:929 JLINK_WriteReg(R11, 0x00000000)  returns 0x00 (0000ms, 0794ms total)
T2D50 000:929 JLINK_WriteReg(R12, 0x00000000)  returns 0x00 (0000ms, 0794ms total)
T2D50 000:929 JLINK_WriteReg(R13 (SP), 0x20001000)  returns 0x00 (0000ms, 0794ms total)
T2D50 000:929 JLINK_WriteReg(R14, 0x20000001)  returns 0x00 (0000ms, 0794ms total)
T2D50 000:929 JLINK_WriteReg(R15 (PC), 0x2000007C)  returns 0x00 (0000ms, 0794ms total)
T2D50 000:929 JLINK_WriteReg(XPSR, 0x01000000)  returns 0x00 (0000ms, 0794ms total)
T2D50 000:929 JLINK_WriteReg(MSP, 0x20001000)  returns 0x00 (0000ms, 0794ms total)
T2D50 000:929 JLINK_WriteReg(PSP, 0x20001000)  returns 0x00 (0000ms, 0794ms total)
T2D50 000:929 JLINK_WriteReg(CFBP, 0x00000000)  returns 0x00 (0000ms, 0794ms total)
T2D50 000:929 JLINK_SetBPEx(Addr = 0x20000000, Type = 0xFFFFFFF2)  returns 0x00000002 (0000ms, 0794ms total)
T2D50 000:929 JLINK_Go() -- CPU_ReadMem(4 bytes @ 0xE0001000) (0003ms, 0797ms total)
T2D50 000:932 JLINK_IsHalted()  returns FALSE (0001ms, 0798ms total)
T2D50 000:984 JLINK_IsHalted() -- CPU_ReadMem(2 bytes @ 0x20000000)  returns TRUE (0005ms, 0802ms total)
T2D50 000:989 JLINK_ReadReg(R15 (PC))  returns 0x20000000 (0000ms, 0797ms total)
T2D50 000:989 JLINK_ClrBPEx(BPHandle = 0x00000002)  returns 0x00 (0000ms, 0797ms total)
T2D50 000:989 JLINK_ReadReg(R0)  returns 0x00000000 (0000ms, 0797ms total)
T2D50 001:043 JLINK_WriteReg(R0, 0x00000001)  returns 0x00 (0000ms, 0797ms total)
T2D50 001:043 JLINK_WriteReg(R1, 0x00B71B00)  returns 0x00 (0000ms, 0797ms total)
T2D50 001:043 JLINK_WriteReg(R2, 0x00000001)  returns 0x00 (0000ms, 0797ms total)
T2D50 001:043 JLINK_WriteReg(R3, 0x00000000)  returns 0x00 (0000ms, 0797ms total)
T2D50 001:043 JLINK_WriteReg(R4, 0x00000000)  returns 0x00 (0001ms, 0798ms total)
T2D50 001:044 JLINK_WriteReg(R5, 0x00000000)  returns 0x00 (0000ms, 0798ms total)
T2D50 001:044 JLINK_WriteReg(R6, 0x00000000)  returns 0x00 (0000ms, 0798ms total)
T2D50 001:044 JLINK_WriteReg(R7, 0x00000000)  returns 0x00 (0000ms, 0798ms total)
T2D50 001:044 JLINK_WriteReg(R8, 0x00000000)  returns 0x00 (0000ms, 0798ms total)
T2D50 001:044 JLINK_WriteReg(R9, 0x20000160)  returns 0x00 (0000ms, 0798ms total)
T2D50 001:044 JLINK_WriteReg(R10, 0x00000000)  returns 0x00 (0000ms, 0798ms total)
T2D50 001:044 JLINK_WriteReg(R11, 0x00000000)  returns 0x00 (0000ms, 0798ms total)
T2D50 001:044 JLINK_WriteReg(R12, 0x00000000)  returns 0x00 (0000ms, 0798ms total)
T2D50 001:044 JLINK_WriteReg(R13 (SP), 0x20001000)  returns 0x00 (0000ms, 0798ms total)
T2D50 001:044 JLINK_WriteReg(R14, 0x20000001)  returns 0x00 (0000ms, 0798ms total)
T2D50 001:044 JLINK_WriteReg(R15 (PC), 0x2000006A)  returns 0x00 (0000ms, 0798ms total)
T2D50 001:044 JLINK_WriteReg(XPSR, 0x01000000)  returns 0x00 (0000ms, 0798ms total)
T2D50 001:044 JLINK_WriteReg(MSP, 0x20001000)  returns 0x00 (0000ms, 0798ms total)
T2D50 001:044 JLINK_WriteReg(PSP, 0x20001000)  returns 0x00 (0000ms, 0798ms total)
T2D50 001:044 JLINK_WriteReg(CFBP, 0x00000000)  returns 0x00 (0000ms, 0798ms total)
T2D50 001:044 JLINK_SetBPEx(Addr = 0x20000000, Type = 0xFFFFFFF2)  returns 0x00000003 (0000ms, 0798ms total)
T2D50 001:044 JLINK_Go() -- CPU_ReadMem(4 bytes @ 0xE0001000) (0004ms, 0802ms total)
T2D50 001:048 JLINK_IsHalted() -- CPU_ReadMem(2 bytes @ 0x20000000)  returns TRUE (0005ms, 0807ms total)
T2D50 001:053 JLINK_ReadReg(R15 (PC))  returns 0x20000000 (0000ms, 0802ms total)
T2D50 001:053 JLINK_ClrBPEx(BPHandle = 0x00000003)  returns 0x00 (0000ms, 0802ms total)
T2D50 001:053 JLINK_ReadReg(R0)  returns 0x00000000 (0000ms, 0802ms total)
T2D50 001:061 JLINK_WriteMem(0x20000000, 0x0164 Bytes, ...) - Data: 00 BE 0A E0 0D 78 2D 06 68 40 08 24 40 00 00 D3 ... -- CPU_WriteMem(356 bytes @ 0x20000000)  returns 0x164 (0005ms, 0807ms total)
T2D50 001:066 JLINK_WriteReg(R0, 0x08000000)  returns 0x00 (0000ms, 0807ms total)
T2D50 001:066 JLINK_WriteReg(R1, 0x00B71B00)  returns 0x00 (0000ms, 0807ms total)
T2D50 001:066 JLINK_WriteReg(R2, 0x00000002)  returns 0x00 (0000ms, 0807ms total)
T2D50 001:066 JLINK_WriteReg(R3, 0x00000000)  returns 0x00 (0000ms, 0807ms total)
T2D50 001:066 JLINK_WriteReg(R4, 0x00000000)  returns 0x00 (0000ms, 0807ms total)
T2D50 001:066 JLINK_WriteReg(R5, 0x00000000)  returns 0x00 (0000ms, 0807ms total)
T2D50 001:066 JLINK_WriteReg(R6, 0x00000000)  returns 0x00 (0000ms, 0807ms total)
T2D50 001:066 JLINK_WriteReg(R7, 0x00000000)  returns 0x00 (0000ms, 0807ms total)
T2D50 001:066 JLINK_WriteReg(R8, 0x00000000)  returns 0x00 (0000ms, 0807ms total)
T2D50 001:066 JLINK_WriteReg(R9, 0x20000160)  returns 0x00 (0000ms, 0807ms total)
T2D50 001:066 JLINK_WriteReg(R10, 0x00000000)  returns 0x00 (0000ms, 0807ms total)
T2D50 001:066 JLINK_WriteReg(R11, 0x00000000)  returns 0x00 (0000ms, 0807ms total)
T2D50 001:066 JLINK_WriteReg(R12, 0x00000000)  returns 0x00 (0000ms, 0807ms total)
T2D50 001:066 JLINK_WriteReg(R13 (SP), 0x20001000)  returns 0x00 (0000ms, 0807ms total)
T2D50 001:066 JLINK_WriteReg(R14, 0x20000001)  returns 0x00 (0000ms, 0807ms total)
T2D50 001:066 JLINK_WriteReg(R15 (PC), 0x20000038)  returns 0x00 (0000ms, 0807ms total)
T2D50 001:066 JLINK_WriteReg(XPSR, 0x01000000)  returns 0x00 (0001ms, 0808ms total)
T2D50 001:067 JLINK_WriteReg(MSP, 0x20001000)  returns 0x00 (0000ms, 0808ms total)
T2D50 001:067 JLINK_WriteReg(PSP, 0x20001000)  returns 0x00 (0000ms, 0808ms total)
T2D50 001:067 JLINK_WriteReg(CFBP, 0x00000000)  returns 0x00 (0000ms, 0808ms total)
T2D50 001:067 JLINK_SetBPEx(Addr = 0x20000000, Type = 0xFFFFFFF2) -- CPU_ReadMem(2 bytes @ 0x20000000)  returns 0x00000004 (0001ms, 0809ms total)
T2D50 001:068 JLINK_Go() -- CPU_WriteMem(2 bytes @ 0x20000000) -- CPU_ReadMem(4 bytes @ 0xE0001000) (0005ms, 0814ms total)
T2D50 001:073 JLINK_IsHalted() -- CPU_ReadMem(2 bytes @ 0x20000000)  returns TRUE (0005ms, 0819ms total)
T2D50 001:078 JLINK_ReadReg(R15 (PC))  returns 0x20000000 (0000ms, 0814ms total)
T2D50 001:078 JLINK_ClrBPEx(BPHandle = 0x00000004)  returns 0x00 (0000ms, 0814ms total)
T2D50 001:078 JLINK_ReadReg(R0)  returns 0x00000000 (0000ms, 0814ms total)
T2D50 001:078 JLINK_WriteMem(0x20000164, 0x0400 Bytes, ...) - Data: 90 1F 00 20 D5 21 00 08 B5 36 00 08 29 36 00 08 ... -- CPU_WriteMem(1024 bytes @ 0x20000164)  returns 0x400 (0013ms, 0827ms total)
T2D50 001:091 JLINK_WriteReg(R0, 0x08002000)  returns 0x00 (0000ms, 0827ms total)
T2D50 001:091 JLINK_WriteReg(R1, 0x00000400)  returns 0x00 (0000ms, 0827ms total)
T2D50 001:091 JLINK_WriteReg(R2, 0x20000164)  returns 0x00 (0000ms, 0827ms total)
T2D50 001:091 JLINK_WriteReg(R3, 0x00000000)  returns 0x00 (0000ms, 0827ms total)
T2D50 001:091 JLINK_WriteReg(R4, 0x00000000)  returns 0x00 (0000ms, 0827ms total)
T2D50 001:091 JLINK_WriteReg(R5, 0x00000000)  returns 0x00 (0000ms, 0827ms total)
T2D50 001:091 JLINK_WriteReg(R6, 0x00000000)  returns 0x00 (0000ms, 0827ms total)
T2D50 001:091 JLINK_WriteReg(R7, 0x00000000)  returns 0x00 (0000ms, 0827ms total)
T2D50 001:091 JLINK_WriteReg(R8, 0x00000000)  returns 0x00 (0000ms, 0827ms total)
T2D50 001:091 JLINK_WriteReg(R9, 0x20000160)  returns 0x00 (0000ms, 0827ms total)
T2D50 001:091 JLINK_WriteReg(R10, 0x00000000)  returns 0x00 (0000ms, 0827ms total)
T2D50 001:091 JLINK_WriteReg(R11, 0x00000000)  returns 0x00 (0000ms, 0827ms total)
T2D50 001:091 JLINK_WriteReg(R12, 0x00000000)  returns 0x00 (0000ms, 0827ms total)
T2D50 001:091 JLINK_WriteReg(R13 (SP), 0x20001000)  returns 0x00 (0000ms, 0827ms total)
T2D50 001:091 JLINK_WriteReg(R14, 0x20000001)  returns 0x00 (0000ms, 0827ms total)
T2D50 001:091 JLINK_WriteReg(R15 (PC), 0x200000F4)  returns 0x00 (0000ms, 0827ms total)
T2D50 001:091 JLINK_WriteReg(XPSR, 0x01000000)  returns 0x00 (0000ms, 0827ms total)
T2D50 001:091 JLINK_WriteReg(MSP, 0x20001000)  returns 0x00 (0000ms, 0827ms total)
T2D50 001:091 JLINK_WriteReg(PSP, 0x20001000)  returns 0x00 (0000ms, 0827ms total)
T2D50 001:091 JLINK_WriteReg(CFBP, 0x00000000)  returns 0x00 (0000ms, 0827ms total)
T2D50 001:091 JLINK_SetBPEx(Addr = 0x20000000, Type = 0xFFFFFFF2)  returns 0x00000005 (0000ms, 0827ms total)
T2D50 001:091 JLINK_Go() -- CPU_ReadMem(4 bytes @ 0xE0001000) (0005ms, 0832ms total)
T2D50 001:096 JLINK_IsHalted()  returns FALSE (0001ms, 0833ms total)
T2D50 001:108 JLINK_IsHalted()  returns FALSE (0001ms, 0833ms total)
T2D50 001:110 JLINK_IsHalted()  returns FALSE (0001ms, 0833ms total)
T2D50 001:112 JLINK_IsHalted()  returns FALSE (0001ms, 0833ms total)
T2D50 001:114 JLINK_IsHalted()  returns FALSE (0001ms, 0833ms total)
T2D50 001:116 JLINK_IsHalted()  returns FALSE (0001ms, 0833ms total)
T2D50 001:118 JLINK_IsHalted()  returns FALSE (0001ms, 0833ms total)
T2D50 001:120 JLINK_IsHalted()  returns FALSE (0001ms, 0833ms total)
T2D50 001:122 JLINK_IsHalted()  returns FALSE (0001ms, 0833ms total)
T2D50 001:124 JLINK_IsHalted()  returns FALSE (0001ms, 0833ms total)
T2D50 001:126 JLINK_IsHalted()  returns FALSE (0001ms, 0833ms total)
T2D50 001:128 JLINK_IsHalted() -- CPU_ReadMem(2 bytes @ 0x20000000)  returns TRUE (0005ms, 0837ms total)
T2D50 001:133 JLINK_ReadReg(R15 (PC))  returns 0x20000000 (0000ms, 0832ms total)
T2D50 001:133 JLINK_ClrBPEx(BPHandle = 0x00000005)  returns 0x00 (0000ms, 0832ms total)
T2D50 001:133 JLINK_ReadReg(R0)  returns 0x00000000 (0000ms, 0832ms total)
T2D50 001:133 JLINK_WriteMem(0x20000164, 0x0400 Bytes, ...) - Data: 70 47 00 B5 8F B0 CD E9 01 31 00 21 05 91 05 49 ... -- CPU_WriteMem(1024 bytes @ 0x20000164)  returns 0x400 (0013ms, 0845ms total)
T2D50 001:146 JLINK_WriteReg(R0, 0x08002400)  returns 0x00 (0000ms, 0845ms total)
T2D50 001:146 JLINK_WriteReg(R1, 0x00000400)  returns 0x00 (0000ms, 0845ms total)
T2D50 001:146 JLINK_WriteReg(R2, 0x20000164)  returns 0x00 (0000ms, 0845ms total)
T2D50 001:146 JLINK_WriteReg(R3, 0x00000000)  returns 0x00 (0000ms, 0845ms total)
T2D50 001:146 JLINK_WriteReg(R4, 0x00000000)  returns 0x00 (0000ms, 0845ms total)
T2D50 001:146 JLINK_WriteReg(R5, 0x00000000)  returns 0x00 (0000ms, 0845ms total)
T2D50 001:146 JLINK_WriteReg(R6, 0x00000000)  returns 0x00 (0000ms, 0845ms total)
T2D50 001:146 JLINK_WriteReg(R7, 0x00000000)  returns 0x00 (0000ms, 0845ms total)
T2D50 001:146 JLINK_WriteReg(R8, 0x00000000)  returns 0x00 (0000ms, 0845ms total)
T2D50 001:146 JLINK_WriteReg(R9, 0x20000160)  returns 0x00 (0000ms, 0845ms total)
T2D50 001:146 JLINK_WriteReg(R10, 0x00000000)  returns 0x00 (0000ms, 0845ms total)
T2D50 001:146 JLINK_WriteReg(R11, 0x00000000)  returns 0x00 (0000ms, 0845ms total)
T2D50 001:146 JLINK_WriteReg(R12, 0x00000000)  returns 0x00 (0000ms, 0845ms total)
T2D50 001:146 JLINK_WriteReg(R13 (SP), 0x20001000)  returns 0x00 (0000ms, 0845ms total)
T2D50 001:146 JLINK_WriteReg(R14, 0x20000001)  returns 0x00 (0000ms, 0845ms total)
T2D50 001:146 JLINK_WriteReg(R15 (PC), 0x200000F4)  returns 0x00 (0000ms, 0845ms total)
T2D50 001:146 JLINK_WriteReg(XPSR, 0x01000000)  returns 0x00 (0000ms, 0845ms total)
T2D50 001:146 JLINK_WriteReg(MSP, 0x20001000)  returns 0x00 (0000ms, 0845ms total)
T2D50 001:146 JLINK_WriteReg(PSP, 0x20001000)  returns 0x00 (0000ms, 0845ms total)
T2D50 001:146 JLINK_WriteReg(CFBP, 0x00000000)  returns 0x00 (0000ms, 0845ms total)
T2D50 001:147 JLINK_SetBPEx(Addr = 0x20000000, Type = 0xFFFFFFF2)  returns 0x00000006 (0000ms, 0846ms total)
T2D50 001:147 JLINK_Go() -- CPU_ReadMem(4 bytes @ 0xE0001000) (0004ms, 0850ms total)
T2D50 001:151 JLINK_IsHalted()  returns FALSE (0001ms, 0851ms total)
T2D50 001:155 JLINK_IsHalted()  returns FALSE (0001ms, 0851ms total)
T2D50 001:157 JLINK_IsHalted()  returns FALSE (0001ms, 0851ms total)
T2D50 001:159 JLINK_IsHalted()  returns FALSE (0001ms, 0851ms total)
T2D50 001:161 JLINK_IsHalted()  returns FALSE (0001ms, 0851ms total)
T2D50 001:166 JLINK_IsHalted()  returns FALSE (0001ms, 0851ms total)
T2D50 001:168 JLINK_IsHalted()  returns FALSE (0001ms, 0851ms total)
T2D50 001:170 JLINK_IsHalted()  returns FALSE (0001ms, 0851ms total)
T2D50 001:172 JLINK_IsHalted()  returns FALSE (0001ms, 0851ms total)
T2D50 001:174 JLINK_IsHalted()  returns FALSE (0001ms, 0851ms total)
T2D50 001:176 JLINK_IsHalted()  returns FALSE (0001ms, 0851ms total)
T2D50 001:178 JLINK_IsHalted()  returns FALSE (0001ms, 0851ms total)
T2D50 001:180 JLINK_IsHalted()  returns FALSE (0001ms, 0851ms total)
T2D50 001:182 JLINK_IsHalted() -- CPU_ReadMem(2 bytes @ 0x20000000)  returns TRUE (0005ms, 0855ms total)
T2D50 001:187 JLINK_ReadReg(R15 (PC))  returns 0x20000000 (0000ms, 0850ms total)
T2D50 001:187 JLINK_ClrBPEx(BPHandle = 0x00000006)  returns 0x00 (0000ms, 0850ms total)
T2D50 001:187 JLINK_ReadReg(R0)  returns 0x00000000 (0000ms, 0850ms total)
T2D50 001:188 JLINK_WriteMem(0x20000164, 0x0400 Bytes, ...) - Data: C8 21 2B 48 FF F7 AE FF 01 20 10 BD 40 F2 DC 50 ... -- CPU_WriteMem(1024 bytes @ 0x20000164)  returns 0x400 (0012ms, 0862ms total)
T2D50 001:200 JLINK_WriteReg(R0, 0x08002800)  returns 0x00 (0000ms, 0862ms total)
T2D50 001:200 JLINK_WriteReg(R1, 0x00000400)  returns 0x00 (0000ms, 0862ms total)
T2D50 001:200 JLINK_WriteReg(R2, 0x20000164)  returns 0x00 (0000ms, 0862ms total)
T2D50 001:200 JLINK_WriteReg(R3, 0x00000000)  returns 0x00 (0000ms, 0862ms total)
T2D50 001:200 JLINK_WriteReg(R4, 0x00000000)  returns 0x00 (0000ms, 0862ms total)
T2D50 001:200 JLINK_WriteReg(R5, 0x00000000)  returns 0x00 (0000ms, 0862ms total)
T2D50 001:200 JLINK_WriteReg(R6, 0x00000000)  returns 0x00 (0000ms, 0862ms total)
T2D50 001:200 JLINK_WriteReg(R7, 0x00000000)  returns 0x00 (0000ms, 0862ms total)
T2D50 001:200 JLINK_WriteReg(R8, 0x00000000)  returns 0x00 (0000ms, 0862ms total)
T2D50 001:200 JLINK_WriteReg(R9, 0x20000160)  returns 0x00 (0000ms, 0862ms total)
T2D50 001:200 JLINK_WriteReg(R10, 0x00000000)  returns 0x00 (0000ms, 0862ms total)
T2D50 001:200 JLINK_WriteReg(R11, 0x00000000)  returns 0x00 (0000ms, 0862ms total)
T2D50 001:200 JLINK_WriteReg(R12, 0x00000000)  returns 0x00 (0000ms, 0862ms total)
T2D50 001:200 JLINK_WriteReg(R13 (SP), 0x20001000)  returns 0x00 (0000ms, 0862ms total)
T2D50 001:200 JLINK_WriteReg(R14, 0x20000001)  returns 0x00 (0000ms, 0862ms total)
T2D50 001:200 JLINK_WriteReg(R15 (PC), 0x200000F4)  returns 0x00 (0000ms, 0862ms total)
T2D50 001:200 JLINK_WriteReg(XPSR, 0x01000000)  returns 0x00 (0000ms, 0862ms total)
T2D50 001:200 JLINK_WriteReg(MSP, 0x20001000)  returns 0x00 (0000ms, 0862ms total)
T2D50 001:200 JLINK_WriteReg(PSP, 0x20001000)  returns 0x00 (0001ms, 0863ms total)
T2D50 001:201 JLINK_WriteReg(CFBP, 0x00000000)  returns 0x00 (0000ms, 0863ms total)
T2D50 001:201 JLINK_SetBPEx(Addr = 0x20000000, Type = 0xFFFFFFF2)  returns 0x00000007 (0000ms, 0863ms total)
T2D50 001:201 JLINK_Go() -- CPU_ReadMem(4 bytes @ 0xE0001000) (0004ms, 0867ms total)
T2D50 001:205 JLINK_IsHalted()  returns FALSE (0001ms, 0868ms total)
T2D50 001:211 JLINK_IsHalted()  returns FALSE (0001ms, 0868ms total)
T2D50 001:213 JLINK_IsHalted()  returns FALSE (0001ms, 0868ms total)
T2D50 001:215 JLINK_IsHalted()  returns FALSE (0001ms, 0868ms total)
T2D50 001:219 JLINK_IsHalted()  returns FALSE (0001ms, 0868ms total)
T2D50 001:221 JLINK_IsHalted()  returns FALSE (0001ms, 0868ms total)
T2D50 001:223 JLINK_IsHalted()  returns FALSE (0001ms, 0868ms total)
T2D50 001:227 JLINK_IsHalted()  returns FALSE (0001ms, 0868ms total)
T2D50 001:229 JLINK_IsHalted()  returns FALSE (0001ms, 0868ms total)
T2D50 001:231 JLINK_IsHalted()  returns FALSE (0001ms, 0868ms total)
T2D50 001:235 JLINK_IsHalted()  returns FALSE (0001ms, 0868ms total)
T2D50 001:237 JLINK_IsHalted() -- CPU_ReadMem(2 bytes @ 0x20000000)  returns TRUE (0005ms, 0872ms total)
T2D50 001:242 JLINK_ReadReg(R15 (PC))  returns 0x20000000 (0000ms, 0867ms total)
T2D50 001:242 JLINK_ClrBPEx(BPHandle = 0x00000007)  returns 0x00 (0000ms, 0867ms total)
T2D50 001:242 JLINK_ReadReg(R0)  returns 0x00000000 (0000ms, 0867ms total)
T2D50 001:242 JLINK_WriteMem(0x20000164, 0x0400 Bytes, ...) - Data: 90 F8 82 00 88 74 05 20 C8 74 01 20 08 75 30 46 ... -- CPU_WriteMem(1024 bytes @ 0x20000164)  returns 0x400 (0013ms, 0880ms total)
T2D50 001:255 JLINK_WriteReg(R0, 0x08002C00)  returns 0x00 (0000ms, 0880ms total)
T2D50 001:255 JLINK_WriteReg(R1, 0x00000400)  returns 0x00 (0000ms, 0880ms total)
T2D50 001:255 JLINK_WriteReg(R2, 0x20000164)  returns 0x00 (0000ms, 0880ms total)
T2D50 001:255 JLINK_WriteReg(R3, 0x00000000)  returns 0x00 (0000ms, 0880ms total)
T2D50 001:255 JLINK_WriteReg(R4, 0x00000000)  returns 0x00 (0000ms, 0880ms total)
T2D50 001:255 JLINK_WriteReg(R5, 0x00000000)  returns 0x00 (0000ms, 0880ms total)
T2D50 001:255 JLINK_WriteReg(R6, 0x00000000)  returns 0x00 (0000ms, 0880ms total)
T2D50 001:255 JLINK_WriteReg(R7, 0x00000000)  returns 0x00 (0000ms, 0880ms total)
T2D50 001:255 JLINK_WriteReg(R8, 0x00000000)  returns 0x00 (0000ms, 0880ms total)
T2D50 001:255 JLINK_WriteReg(R9, 0x20000160)  returns 0x00 (0000ms, 0880ms total)
T2D50 001:255 JLINK_WriteReg(R10, 0x00000000)  returns 0x00 (0000ms, 0880ms total)
T2D50 001:255 JLINK_WriteReg(R11, 0x00000000)  returns 0x00 (0000ms, 0880ms total)
T2D50 001:255 JLINK_WriteReg(R12, 0x00000000)  returns 0x00 (0000ms, 0880ms total)
T2D50 001:255 JLINK_WriteReg(R13 (SP), 0x20001000)  returns 0x00 (0000ms, 0880ms total)
T2D50 001:255 JLINK_WriteReg(R14, 0x20000001)  returns 0x00 (0000ms, 0880ms total)
T2D50 001:255 JLINK_WriteReg(R15 (PC), 0x200000F4)  returns 0x00 (0000ms, 0880ms total)
T2D50 001:255 JLINK_WriteReg(XPSR, 0x01000000)  returns 0x00 (0000ms, 0880ms total)
T2D50 001:255 JLINK_WriteReg(MSP, 0x20001000)  returns 0x00 (0000ms, 0880ms total)
T2D50 001:255 JLINK_WriteReg(PSP, 0x20001000)  returns 0x00 (0000ms, 0880ms total)
T2D50 001:255 JLINK_WriteReg(CFBP, 0x00000000)  returns 0x00 (0000ms, 0880ms total)
T2D50 001:255 JLINK_SetBPEx(Addr = 0x20000000, Type = 0xFFFFFFF2)  returns 0x00000008 (0000ms, 0880ms total)
T2D50 001:255 JLINK_Go() -- CPU_ReadMem(4 bytes @ 0xE0001000) (0005ms, 0885ms total)
T2D50 001:260 JLINK_IsHalted()  returns FALSE (0001ms, 0886ms total)
T2D50 001:270 JLINK_IsHalted()  returns FALSE (0001ms, 0886ms total)
T2D50 001:276 JLINK_IsHalted()  returns FALSE (0001ms, 0886ms total)
T2D50 001:278 JLINK_IsHalted()  returns FALSE (0001ms, 0886ms total)
T2D50 001:282 JLINK_IsHalted()  returns FALSE (0001ms, 0886ms total)
T2D50 001:284 JLINK_IsHalted()  returns FALSE (0001ms, 0886ms total)
T2D50 001:286 JLINK_IsHalted()  returns FALSE (0001ms, 0886ms total)
T2D50 001:292 JLINK_IsHalted() -- CPU_ReadMem(2 bytes @ 0x20000000)  returns TRUE (0005ms, 0890ms total)
T2D50 001:297 JLINK_ReadReg(R15 (PC))  returns 0x20000000 (0000ms, 0885ms total)
T2D50 001:297 JLINK_ClrBPEx(BPHandle = 0x00000008)  returns 0x00 (0000ms, 0885ms total)
T2D50 001:297 JLINK_ReadReg(R0)  returns 0x00000000 (0000ms, 0885ms total)
T2D50 001:297 JLINK_WriteMem(0x20000164, 0x0400 Bytes, ...) - Data: 33 A0 FF F7 09 F9 00 24 0C E0 01 A9 04 F1 10 00 ... -- CPU_WriteMem(1024 bytes @ 0x20000164)  returns 0x400 (0012ms, 0897ms total)
T2D50 001:310 JLINK_WriteReg(R0, 0x08003000)  returns 0x00 (0000ms, 0897ms total)
T2D50 001:310 JLINK_WriteReg(R1, 0x00000400)  returns 0x00 (0000ms, 0897ms total)
T2D50 001:310 JLINK_WriteReg(R2, 0x20000164)  returns 0x00 (0000ms, 0897ms total)
T2D50 001:310 JLINK_WriteReg(R3, 0x00000000)  returns 0x00 (0000ms, 0897ms total)
T2D50 001:310 JLINK_WriteReg(R4, 0x00000000)  returns 0x00 (0000ms, 0897ms total)
T2D50 001:310 JLINK_WriteReg(R5, 0x00000000)  returns 0x00 (0000ms, 0897ms total)
T2D50 001:310 JLINK_WriteReg(R6, 0x00000000)  returns 0x00 (0000ms, 0897ms total)
T2D50 001:310 JLINK_WriteReg(R7, 0x00000000)  returns 0x00 (0000ms, 0897ms total)
T2D50 001:310 JLINK_WriteReg(R8, 0x00000000)  returns 0x00 (0000ms, 0897ms total)
T2D50 001:310 JLINK_WriteReg(R9, 0x20000160)  returns 0x00 (0000ms, 0897ms total)
T2D50 001:310 JLINK_WriteReg(R10, 0x00000000)  returns 0x00 (0000ms, 0897ms total)
T2D50 001:310 JLINK_WriteReg(R11, 0x00000000)  returns 0x00 (0000ms, 0897ms total)
T2D50 001:310 JLINK_WriteReg(R12, 0x00000000)  returns 0x00 (0000ms, 0897ms total)
T2D50 001:310 JLINK_WriteReg(R13 (SP), 0x20001000)  returns 0x00 (0000ms, 0897ms total)
T2D50 001:310 JLINK_WriteReg(R14, 0x20000001)  returns 0x00 (0000ms, 0897ms total)
T2D50 001:310 JLINK_WriteReg(R15 (PC), 0x200000F4)  returns 0x00 (0000ms, 0897ms total)
T2D50 001:310 JLINK_WriteReg(XPSR, 0x01000000)  returns 0x00 (0000ms, 0897ms total)
T2D50 001:310 JLINK_WriteReg(MSP, 0x20001000)  returns 0x00 (0000ms, 0897ms total)
T2D50 001:310 JLINK_WriteReg(PSP, 0x20001000)  returns 0x00 (0000ms, 0897ms total)
T2D50 001:310 JLINK_WriteReg(CFBP, 0x00000000)  returns 0x00 (0000ms, 0897ms total)
T2D50 001:310 JLINK_SetBPEx(Addr = 0x20000000, Type = 0xFFFFFFF2)  returns 0x00000009 (0000ms, 0897ms total)
T2D50 001:310 JLINK_Go() -- CPU_ReadMem(4 bytes @ 0xE0001000) (0004ms, 0901ms total)
T2D50 001:314 JLINK_IsHalted()  returns FALSE (0001ms, 0902ms total)
T2D50 001:316 JLINK_IsHalted()  returns FALSE (0000ms, 0901ms total)
T2D50 001:317 JLINK_IsHalted()  returns FALSE (0000ms, 0901ms total)
T2D50 001:318 JLINK_IsHalted()  returns FALSE (0000ms, 0901ms total)
T2D50 001:319 JLINK_IsHalted()  returns FALSE (0000ms, 0901ms total)
T2D50 001:320 JLINK_IsHalted()  returns FALSE (0000ms, 0901ms total)
T2D50 001:321 JLINK_IsHalted()  returns FALSE (0000ms, 0901ms total)
T2D50 001:322 JLINK_IsHalted()  returns FALSE (0000ms, 0901ms total)
T2D50 001:323 JLINK_IsHalted()  returns FALSE (0000ms, 0901ms total)
T2D50 001:324 JLINK_IsHalted()  returns FALSE (0000ms, 0901ms total)
T2D50 001:325 JLINK_IsHalted()  returns FALSE (0000ms, 0901ms total)
T2D50 001:326 JLINK_IsHalted()  returns FALSE (0000ms, 0901ms total)
T2D50 001:327 JLINK_IsHalted()  returns FALSE (0000ms, 0901ms total)
T2D50 001:328 JLINK_IsHalted()  returns FALSE (0000ms, 0901ms total)
T2D50 001:329 JLINK_IsHalted()  returns FALSE (0000ms, 0901ms total)
T2D50 001:331 JLINK_IsHalted()  returns FALSE (0001ms, 0902ms total)
T2D50 001:333 JLINK_IsHalted()  returns FALSE (0001ms, 0902ms total)
T2D50 001:335 JLINK_IsHalted()  returns FALSE (0001ms, 0902ms total)
T2D50 001:337 JLINK_IsHalted()  returns FALSE (0001ms, 0902ms total)
T2D50 001:339 JLINK_IsHalted()  returns FALSE (0001ms, 0902ms total)
T2D50 001:341 JLINK_IsHalted()  returns FALSE (0001ms, 0902ms total)
T2D50 001:343 JLINK_IsHalted()  returns FALSE (0001ms, 0902ms total)
T2D50 001:345 JLINK_IsHalted() -- CPU_ReadMem(2 bytes @ 0x20000000)  returns TRUE (0005ms, 0906ms total)
T2D50 001:350 JLINK_ReadReg(R15 (PC))  returns 0x20000000 (0000ms, 0901ms total)
T2D50 001:350 JLINK_ClrBPEx(BPHandle = 0x00000009)  returns 0x00 (0000ms, 0901ms total)
T2D50 001:350 JLINK_ReadReg(R0)  returns 0x00000000 (0000ms, 0901ms total)
T2D50 001:352 JLINK_WriteMem(0x20000164, 0x0400 Bytes, ...) - Data: FE F7 0A FF 60 1C C4 B2 64 2C EE DB 00 BF 0E 48 ... -- CPU_WriteMem(1024 bytes @ 0x20000164)  returns 0x400 (0013ms, 0914ms total)
T2D50 001:365 JLINK_WriteReg(R0, 0x08003400)  returns 0x00 (0000ms, 0914ms total)
T2D50 001:365 JLINK_WriteReg(R1, 0x00000400)  returns 0x00 (0000ms, 0914ms total)
T2D50 001:365 JLINK_WriteReg(R2, 0x20000164)  returns 0x00 (0000ms, 0914ms total)
T2D50 001:365 JLINK_WriteReg(R3, 0x00000000)  returns 0x00 (0000ms, 0914ms total)
T2D50 001:365 JLINK_WriteReg(R4, 0x00000000)  returns 0x00 (0000ms, 0914ms total)
T2D50 001:365 JLINK_WriteReg(R5, 0x00000000)  returns 0x00 (0000ms, 0914ms total)
T2D50 001:365 JLINK_WriteReg(R6, 0x00000000)  returns 0x00 (0000ms, 0914ms total)
T2D50 001:365 JLINK_WriteReg(R7, 0x00000000)  returns 0x00 (0000ms, 0914ms total)
T2D50 001:365 JLINK_WriteReg(R8, 0x00000000)  returns 0x00 (0000ms, 0914ms total)
T2D50 001:365 JLINK_WriteReg(R9, 0x20000160)  returns 0x00 (0000ms, 0914ms total)
T2D50 001:365 JLINK_WriteReg(R10, 0x00000000)  returns 0x00 (0000ms, 0914ms total)
T2D50 001:365 JLINK_WriteReg(R11, 0x00000000)  returns 0x00 (0000ms, 0914ms total)
T2D50 001:365 JLINK_WriteReg(R12, 0x00000000)  returns 0x00 (0000ms, 0914ms total)
T2D50 001:365 JLINK_WriteReg(R13 (SP), 0x20001000)  returns 0x00 (0000ms, 0914ms total)
T2D50 001:365 JLINK_WriteReg(R14, 0x20000001)  returns 0x00 (0000ms, 0914ms total)
T2D50 001:365 JLINK_WriteReg(R15 (PC), 0x200000F4)  returns 0x00 (0000ms, 0914ms total)
T2D50 001:365 JLINK_WriteReg(XPSR, 0x01000000)  returns 0x00 (0000ms, 0914ms total)
T2D50 001:365 JLINK_WriteReg(MSP, 0x20001000)  returns 0x00 (0000ms, 0914ms total)
T2D50 001:365 JLINK_WriteReg(PSP, 0x20001000)  returns 0x00 (0000ms, 0914ms total)
T2D50 001:365 JLINK_WriteReg(CFBP, 0x00000000)  returns 0x00 (0000ms, 0914ms total)
T2D50 001:365 JLINK_SetBPEx(Addr = 0x20000000, Type = 0xFFFFFFF2)  returns 0x0000000A (0000ms, 0914ms total)
T2D50 001:365 JLINK_Go() -- CPU_ReadMem(4 bytes @ 0xE0001000) (0005ms, 0919ms total)
T2D50 001:370 JLINK_IsHalted()  returns FALSE (0001ms, 0920ms total)
T2D50 001:374 JLINK_IsHalted()  returns FALSE (0001ms, 0920ms total)
T2D50 001:376 JLINK_IsHalted()  returns FALSE (0001ms, 0920ms total)
T2D50 001:378 JLINK_IsHalted()  returns FALSE (0001ms, 0920ms total)
T2D50 001:380 JLINK_IsHalted()  returns FALSE (0001ms, 0920ms total)
T2D50 001:382 JLINK_IsHalted()  returns FALSE (0001ms, 0920ms total)
T2D50 001:384 JLINK_IsHalted()  returns FALSE (0001ms, 0920ms total)
T2D50 001:386 JLINK_IsHalted()  returns FALSE (0001ms, 0920ms total)
T2D50 001:388 JLINK_IsHalted()  returns FALSE (0001ms, 0920ms total)
T2D50 001:390 JLINK_IsHalted()  returns FALSE (0001ms, 0920ms total)
T2D50 001:392 JLINK_IsHalted()  returns FALSE (0001ms, 0920ms total)
T2D50 001:394 JLINK_IsHalted()  returns FALSE (0001ms, 0920ms total)
T2D50 001:396 JLINK_IsHalted()  returns FALSE (0001ms, 0920ms total)
T2D50 001:398 JLINK_IsHalted()  returns FALSE (0001ms, 0920ms total)
T2D50 001:400 JLINK_IsHalted()  returns FALSE (0001ms, 0920ms total)
T2D50 001:402 JLINK_IsHalted() -- CPU_ReadMem(2 bytes @ 0x20000000)  returns TRUE (0005ms, 0924ms total)
T2D50 001:407 JLINK_ReadReg(R15 (PC))  returns 0x20000000 (0000ms, 0919ms total)
T2D50 001:407 JLINK_ClrBPEx(BPHandle = 0x0000000A)  returns 0x00 (0000ms, 0919ms total)
T2D50 001:407 JLINK_ReadReg(R0)  returns 0x00000000 (0000ms, 0919ms total)
T2D50 001:411 JLINK_WriteMem(0x20000164, 0x0400 Bytes, ...) - Data: 4D FB 40 F2 DC 50 01 F0 27 FE 4F F4 80 51 02 48 ... -- CPU_WriteMem(1024 bytes @ 0x20000164)  returns 0x400 (0012ms, 0931ms total)
T2D50 001:424 JLINK_WriteReg(R0, 0x08003800)  returns 0x00 (0000ms, 0931ms total)
T2D50 001:424 JLINK_WriteReg(R1, 0x00000400)  returns 0x00 (0000ms, 0931ms total)
T2D50 001:424 JLINK_WriteReg(R2, 0x20000164)  returns 0x00 (0000ms, 0931ms total)
T2D50 001:424 JLINK_WriteReg(R3, 0x00000000)  returns 0x00 (0000ms, 0931ms total)
T2D50 001:424 JLINK_WriteReg(R4, 0x00000000)  returns 0x00 (0000ms, 0931ms total)
T2D50 001:424 JLINK_WriteReg(R5, 0x00000000)  returns 0x00 (0000ms, 0931ms total)
T2D50 001:424 JLINK_WriteReg(R6, 0x00000000)  returns 0x00 (0000ms, 0931ms total)
T2D50 001:424 JLINK_WriteReg(R7, 0x00000000)  returns 0x00 (0000ms, 0931ms total)
T2D50 001:424 JLINK_WriteReg(R8, 0x00000000)  returns 0x00 (0000ms, 0931ms total)
T2D50 001:424 JLINK_WriteReg(R9, 0x20000160)  returns 0x00 (0000ms, 0931ms total)
T2D50 001:424 JLINK_WriteReg(R10, 0x00000000)  returns 0x00 (0000ms, 0931ms total)
T2D50 001:424 JLINK_WriteReg(R11, 0x00000000)  returns 0x00 (0000ms, 0931ms total)
T2D50 001:424 JLINK_WriteReg(R12, 0x00000000)  returns 0x00 (0000ms, 0931ms total)
T2D50 001:424 JLINK_WriteReg(R13 (SP), 0x20001000)  returns 0x00 (0000ms, 0931ms total)
T2D50 001:424 JLINK_WriteReg(R14, 0x20000001)  returns 0x00 (0000ms, 0931ms total)
T2D50 001:424 JLINK_WriteReg(R15 (PC), 0x200000F4)  returns 0x00 (0000ms, 0931ms total)
T2D50 001:424 JLINK_WriteReg(XPSR, 0x01000000)  returns 0x00 (0000ms, 0931ms total)
T2D50 001:424 JLINK_WriteReg(MSP, 0x20001000)  returns 0x00 (0000ms, 0931ms total)
T2D50 001:424 JLINK_WriteReg(PSP, 0x20001000)  returns 0x00 (0000ms, 0931ms total)
T2D50 001:424 JLINK_WriteReg(CFBP, 0x00000000)  returns 0x00 (0000ms, 0931ms total)
T2D50 001:424 JLINK_SetBPEx(Addr = 0x20000000, Type = 0xFFFFFFF2)  returns 0x0000000B (0000ms, 0931ms total)
T2D50 001:424 JLINK_Go() -- CPU_ReadMem(4 bytes @ 0xE0001000) (0004ms, 0935ms total)
T2D50 001:428 JLINK_IsHalted()  returns FALSE (0001ms, 0936ms total)
T2D50 001:430 JLINK_IsHalted()  returns FALSE (0000ms, 0935ms total)
T2D50 001:431 JLINK_IsHalted()  returns FALSE (0000ms, 0935ms total)
T2D50 001:432 JLINK_IsHalted()  returns FALSE (0000ms, 0935ms total)
T2D50 001:433 JLINK_IsHalted()  returns FALSE (0000ms, 0935ms total)
T2D50 001:434 JLINK_IsHalted()  returns FALSE (0000ms, 0935ms total)
T2D50 001:435 JLINK_IsHalted()  returns FALSE (0000ms, 0935ms total)
T2D50 001:436 JLINK_IsHalted()  returns FALSE (0000ms, 0935ms total)
T2D50 001:438 JLINK_IsHalted()  returns FALSE (0001ms, 0936ms total)
T2D50 001:440 JLINK_IsHalted()  returns FALSE (0001ms, 0936ms total)
T2D50 001:442 JLINK_IsHalted()  returns FALSE (0001ms, 0936ms total)
T2D50 001:444 JLINK_IsHalted()  returns FALSE (0001ms, 0936ms total)
T2D50 001:446 JLINK_IsHalted()  returns FALSE (0001ms, 0936ms total)
T2D50 001:448 JLINK_IsHalted()  returns FALSE (0001ms, 0936ms total)
T2D50 001:450 JLINK_IsHalted()  returns FALSE (0001ms, 0936ms total)
T2D50 001:452 JLINK_IsHalted()  returns FALSE (0001ms, 0936ms total)
T2D50 001:454 JLINK_IsHalted()  returns FALSE (0000ms, 0935ms total)
T2D50 001:455 JLINK_IsHalted()  returns FALSE (0001ms, 0936ms total)
T2D50 001:457 JLINK_IsHalted()  returns FALSE (0001ms, 0936ms total)
T2D50 001:459 JLINK_IsHalted() -- CPU_ReadMem(2 bytes @ 0x20000000)  returns TRUE (0005ms, 0940ms total)
T2D50 001:464 JLINK_ReadReg(R15 (PC))  returns 0x20000000 (0000ms, 0935ms total)
T2D50 001:464 JLINK_ClrBPEx(BPHandle = 0x0000000B)  returns 0x00 (0000ms, 0935ms total)
T2D50 001:464 JLINK_ReadReg(R0)  returns 0x00000000 (0000ms, 0935ms total)
T2D50 001:465 JLINK_WriteMem(0x20000164, 0x0400 Bytes, ...) - Data: 00 10 08 46 00 F0 DF F8 1C BD 00 00 80 C3 C9 01 ... -- CPU_WriteMem(1024 bytes @ 0x20000164)  returns 0x400 (0012ms, 0947ms total)
T2D50 001:477 JLINK_WriteReg(R0, 0x08003C00)  returns 0x00 (0000ms, 0947ms total)
T2D50 001:477 JLINK_WriteReg(R1, 0x00000400)  returns 0x00 (0000ms, 0947ms total)
T2D50 001:477 JLINK_WriteReg(R2, 0x20000164)  returns 0x00 (0000ms, 0947ms total)
T2D50 001:477 JLINK_WriteReg(R3, 0x00000000)  returns 0x00 (0000ms, 0947ms total)
T2D50 001:477 JLINK_WriteReg(R4, 0x00000000)  returns 0x00 (0000ms, 0947ms total)
T2D50 001:477 JLINK_WriteReg(R5, 0x00000000)  returns 0x00 (0001ms, 0948ms total)
T2D50 001:478 JLINK_WriteReg(R6, 0x00000000)  returns 0x00 (0000ms, 0948ms total)
T2D50 001:478 JLINK_WriteReg(R7, 0x00000000)  returns 0x00 (0000ms, 0948ms total)
T2D50 001:478 JLINK_WriteReg(R8, 0x00000000)  returns 0x00 (0000ms, 0948ms total)
T2D50 001:478 JLINK_WriteReg(R9, 0x20000160)  returns 0x00 (0000ms, 0948ms total)
T2D50 001:478 JLINK_WriteReg(R10, 0x00000000)  returns 0x00 (0000ms, 0948ms total)
T2D50 001:478 JLINK_WriteReg(R11, 0x00000000)  returns 0x00 (0000ms, 0948ms total)
T2D50 001:478 JLINK_WriteReg(R12, 0x00000000)  returns 0x00 (0000ms, 0948ms total)
T2D50 001:478 JLINK_WriteReg(R13 (SP), 0x20001000)  returns 0x00 (0000ms, 0948ms total)
T2D50 001:478 JLINK_WriteReg(R14, 0x20000001)  returns 0x00 (0000ms, 0948ms total)
T2D50 001:478 JLINK_WriteReg(R15 (PC), 0x200000F4)  returns 0x00 (0000ms, 0948ms total)
T2D50 001:478 JLINK_WriteReg(XPSR, 0x01000000)  returns 0x00 (0000ms, 0948ms total)
T2D50 001:478 JLINK_WriteReg(MSP, 0x20001000)  returns 0x00 (0000ms, 0948ms total)
T2D50 001:478 JLINK_WriteReg(PSP, 0x20001000)  returns 0x00 (0000ms, 0948ms total)
T2D50 001:478 JLINK_WriteReg(CFBP, 0x00000000)  returns 0x00 (0000ms, 0948ms total)
T2D50 001:478 JLINK_SetBPEx(Addr = 0x20000000, Type = 0xFFFFFFF2)  returns 0x0000000C (0000ms, 0948ms total)
T2D50 001:478 JLINK_Go() -- CPU_ReadMem(4 bytes @ 0xE0001000) (0004ms, 0952ms total)
T2D50 001:482 JLINK_IsHalted()  returns FALSE (0001ms, 0953ms total)
T2D50 001:495 JLINK_IsHalted()  returns FALSE (0001ms, 0953ms total)
T2D50 001:497 JLINK_IsHalted()  returns FALSE (0001ms, 0953ms total)
T2D50 001:499 JLINK_IsHalted()  returns FALSE (0001ms, 0953ms total)
T2D50 001:501 JLINK_IsHalted()  returns FALSE (0001ms, 0953ms total)
T2D50 001:503 JLINK_IsHalted()  returns FALSE (0001ms, 0953ms total)
T2D50 001:505 JLINK_IsHalted()  returns FALSE (0001ms, 0953ms total)
T2D50 001:507 JLINK_IsHalted()  returns FALSE (0001ms, 0953ms total)
T2D50 001:509 JLINK_IsHalted()  returns FALSE (0001ms, 0953ms total)
T2D50 001:511 JLINK_IsHalted()  returns FALSE (0001ms, 0953ms total)
T2D50 001:513 JLINK_IsHalted() -- CPU_ReadMem(2 bytes @ 0x20000000)  returns TRUE (0005ms, 0957ms total)
T2D50 001:518 JLINK_ReadReg(R15 (PC))  returns 0x20000000 (0000ms, 0952ms total)
T2D50 001:518 JLINK_ClrBPEx(BPHandle = 0x0000000C)  returns 0x00 (0000ms, 0952ms total)
T2D50 001:518 JLINK_ReadReg(R0)  returns 0x00000000 (0000ms, 0952ms total)
T2D50 001:520 JLINK_WriteMem(0x20000164, 0x0400 Bytes, ...) - Data: B0 81 21 42 00 80 21 42 10 B5 04 46 24 03 FF F7 ... -- CPU_WriteMem(1024 bytes @ 0x20000164)  returns 0x400 (0013ms, 0965ms total)
T2D50 001:533 JLINK_WriteReg(R0, 0x08004000)  returns 0x00 (0000ms, 0965ms total)
T2D50 001:533 JLINK_WriteReg(R1, 0x00000400)  returns 0x00 (0000ms, 0965ms total)
T2D50 001:533 JLINK_WriteReg(R2, 0x20000164)  returns 0x00 (0000ms, 0965ms total)
T2D50 001:533 JLINK_WriteReg(R3, 0x00000000)  returns 0x00 (0000ms, 0965ms total)
T2D50 001:533 JLINK_WriteReg(R4, 0x00000000)  returns 0x00 (0000ms, 0965ms total)
T2D50 001:533 JLINK_WriteReg(R5, 0x00000000)  returns 0x00 (0000ms, 0965ms total)
T2D50 001:533 JLINK_WriteReg(R6, 0x00000000)  returns 0x00 (0000ms, 0965ms total)
T2D50 001:533 JLINK_WriteReg(R7, 0x00000000)  returns 0x00 (0000ms, 0965ms total)
T2D50 001:533 JLINK_WriteReg(R8, 0x00000000)  returns 0x00 (0000ms, 0965ms total)
T2D50 001:533 JLINK_WriteReg(R9, 0x20000160)  returns 0x00 (0000ms, 0965ms total)
T2D50 001:533 JLINK_WriteReg(R10, 0x00000000)  returns 0x00 (0000ms, 0965ms total)
T2D50 001:533 JLINK_WriteReg(R11, 0x00000000)  returns 0x00 (0000ms, 0965ms total)
T2D50 001:533 JLINK_WriteReg(R12, 0x00000000)  returns 0x00 (0000ms, 0965ms total)
T2D50 001:533 JLINK_WriteReg(R13 (SP), 0x20001000)  returns 0x00 (0000ms, 0965ms total)
T2D50 001:533 JLINK_WriteReg(R14, 0x20000001)  returns 0x00 (0000ms, 0965ms total)
T2D50 001:533 JLINK_WriteReg(R15 (PC), 0x200000F4)  returns 0x00 (0000ms, 0965ms total)
T2D50 001:533 JLINK_WriteReg(XPSR, 0x01000000)  returns 0x00 (0000ms, 0965ms total)
T2D50 001:533 JLINK_WriteReg(MSP, 0x20001000)  returns 0x00 (0000ms, 0965ms total)
T2D50 001:533 JLINK_WriteReg(PSP, 0x20001000)  returns 0x00 (0000ms, 0965ms total)
T2D50 001:533 JLINK_WriteReg(CFBP, 0x00000000)  returns 0x00 (0000ms, 0965ms total)
T2D50 001:533 JLINK_SetBPEx(Addr = 0x20000000, Type = 0xFFFFFFF2)  returns 0x0000000D (0000ms, 0965ms total)
T2D50 001:533 JLINK_Go() -- CPU_ReadMem(4 bytes @ 0xE0001000) (0005ms, 0970ms total)
T2D50 001:538 JLINK_IsHalted()  returns FALSE (0001ms, 0971ms total)
T2D50 001:555 JLINK_IsHalted()  returns FALSE (0001ms, 0971ms total)
T2D50 001:557 JLINK_IsHalted()  returns FALSE (0001ms, 0971ms total)
T2D50 001:559 JLINK_IsHalted()  returns FALSE (0001ms, 0971ms total)
T2D50 001:561 JLINK_IsHalted()  returns FALSE (0001ms, 0971ms total)
T2D50 001:563 JLINK_IsHalted()  returns FALSE (0001ms, 0971ms total)
T2D50 001:565 JLINK_IsHalted()  returns FALSE (0001ms, 0971ms total)
T2D50 001:567 JLINK_IsHalted()  returns FALSE (0001ms, 0971ms total)
T2D50 001:569 JLINK_IsHalted() -- CPU_ReadMem(2 bytes @ 0x20000000)  returns TRUE (0005ms, 0975ms total)
T2D50 001:574 JLINK_ReadReg(R15 (PC))  returns 0x20000000 (0000ms, 0970ms total)
T2D50 001:574 JLINK_ClrBPEx(BPHandle = 0x0000000D)  returns 0x00 (0000ms, 0970ms total)
T2D50 001:574 JLINK_ReadReg(R0)  returns 0x00000000 (0000ms, 0970ms total)
T2D50 001:575 JLINK_WriteMem(0x20000164, 0x0400 Bytes, ...) - Data: 49 E0 1B 21 01 20 FE F7 55 FA 1B 21 28 48 00 F0 ... -- CPU_WriteMem(1024 bytes @ 0x20000164)  returns 0x400 (0012ms, 0982ms total)
T2D50 001:588 JLINK_WriteReg(R0, 0x08004400)  returns 0x00 (0000ms, 0982ms total)
T2D50 001:588 JLINK_WriteReg(R1, 0x00000400)  returns 0x00 (0001ms, 0983ms total)
T2D50 001:589 JLINK_WriteReg(R2, 0x20000164)  returns 0x00 (0000ms, 0983ms total)
T2D50 001:589 JLINK_WriteReg(R3, 0x00000000)  returns 0x00 (0000ms, 0983ms total)
T2D50 001:589 JLINK_WriteReg(R4, 0x00000000)  returns 0x00 (0000ms, 0983ms total)
T2D50 001:589 JLINK_WriteReg(R5, 0x00000000)  returns 0x00 (0000ms, 0983ms total)
T2D50 001:589 JLINK_WriteReg(R6, 0x00000000)  returns 0x00 (0000ms, 0983ms total)
T2D50 001:589 JLINK_WriteReg(R7, 0x00000000)  returns 0x00 (0000ms, 0983ms total)
T2D50 001:589 JLINK_WriteReg(R8, 0x00000000)  returns 0x00 (0000ms, 0983ms total)
T2D50 001:589 JLINK_WriteReg(R9, 0x20000160)  returns 0x00 (0000ms, 0983ms total)
T2D50 001:589 JLINK_WriteReg(R10, 0x00000000)  returns 0x00 (0000ms, 0983ms total)
T2D50 001:589 JLINK_WriteReg(R11, 0x00000000)  returns 0x00 (0000ms, 0983ms total)
T2D50 001:589 JLINK_WriteReg(R12, 0x00000000)  returns 0x00 (0000ms, 0983ms total)
T2D50 001:589 JLINK_WriteReg(R13 (SP), 0x20001000)  returns 0x00 (0000ms, 0983ms total)
T2D50 001:589 JLINK_WriteReg(R14, 0x20000001)  returns 0x00 (0000ms, 0983ms total)
T2D50 001:589 JLINK_WriteReg(R15 (PC), 0x200000F4)  returns 0x00 (0000ms, 0983ms total)
T2D50 001:589 JLINK_WriteReg(XPSR, 0x01000000)  returns 0x00 (0000ms, 0983ms total)
T2D50 001:589 JLINK_WriteReg(MSP, 0x20001000)  returns 0x00 (0000ms, 0983ms total)
T2D50 001:589 JLINK_WriteReg(PSP, 0x20001000)  returns 0x00 (0000ms, 0983ms total)
T2D50 001:589 JLINK_WriteReg(CFBP, 0x00000000)  returns 0x00 (0000ms, 0983ms total)
T2D50 001:589 JLINK_SetBPEx(Addr = 0x20000000, Type = 0xFFFFFFF2)  returns 0x0000000E (0000ms, 0983ms total)
T2D50 001:589 JLINK_Go() -- CPU_ReadMem(4 bytes @ 0xE0001000) (0004ms, 0987ms total)
T2D50 001:593 JLINK_IsHalted()  returns FALSE (0001ms, 0988ms total)
T2D50 001:608 JLINK_IsHalted()  returns FALSE (0001ms, 0988ms total)
T2D50 001:610 JLINK_IsHalted()  returns FALSE (0001ms, 0988ms total)
T2D50 001:613 JLINK_IsHalted()  returns FALSE (0001ms, 0988ms total)
T2D50 001:615 JLINK_IsHalted()  returns FALSE (0001ms, 0988ms total)
T2D50 001:617 JLINK_IsHalted()  returns FALSE (0001ms, 0988ms total)
T2D50 001:619 JLINK_IsHalted()  returns FALSE (0001ms, 0988ms total)
